T2577C 000:015.995   SEGGER J-Link V7.22b Log File
T2577C 000:016.116   DLL Compiled: Jun 17 2021 17:22:49
T2577C 000:016.121   Logging started @ 2022-12-07 16:57
T2577C 000:016.150 - 16.154ms
T2577C 000:016.163 JLINK_SetWarnOutHandler(...)
T2577C 000:016.196 - 0.037ms
T2577C 000:016.207 JLINK_OpenEx(...)
T2577C 000:268.518   Firmware: J-Link V9 compiled May  7 2021 16:26:12
T2577C 000:269.055   Firmware: J-Link V9 compiled May  7 2021 16:26:12
T2577C 000:269.195   Decompressing FW timestamp took 116 us
T2577C 000:277.327   Hardware: V9.20
T2577C 000:277.341   S/N: 59800877
T2577C 000:277.349   OEM: SEGGER
T2577C 000:277.356   Feature(s): RDI, GDB, FlashDL, FlashBP, JFlash
T2577C 000:279.155   TELNET listener socket opened on port 19021
T2577C 000:279.301   WEBSRV Starting webserver
T2577C 000:279.402   WEBSRV Failed to put socket into listener state (port 19080)
T2577C 000:279.548   WEBSRV Webserver running on local port 19081
T2577C 000:279.562 - 263.359ms returns "O.K."
T2577C 000:279.581 JLINK_GetEmuCaps()
T2577C 000:279.589 - 0.013ms returns 0xB9FF7BBF
T2577C 000:279.603 JLINK_TIF_GetAvailable(...)
T2577C 000:279.950 - 0.353ms
T2577C 000:279.964 JLINK_SetErrorOutHandler(...)
T2577C 000:279.970 - 0.008ms
T2577C 000:279.985 JLINK_ExecCommand("ProjectFile = "D:\daima\INFANTRY\NEW_INFANTRY\GIMBAL\MDK-ARM\JLinkSettings.ini"", ...). 
T2577C 000:288.366   Ref file found at: D:\keil\core\ARM\Segger\JLinkDevices.ref
T2577C 000:288.474   REF file references invalid XML file: C:\Program Files (x86)\SEGGER\JLink_V650\JLinkDevices.xml
T2577C 000:288.566 - 8.586ms returns 0x00
T2577C 000:288.601 JLINK_ExecCommand("Device = STM32F407IGHx", ...). 
T2577C 000:288.989   Device "STM32F407IG" selected.
T2577C 000:289.317 - 0.714ms returns 0x00
T2577C 000:289.332 JLINK_GetHardwareVersion()
T2577C 000:289.337 - 0.008ms returns 92000
T2577C 000:289.343 JLINK_GetDLLVersion()
T2577C 000:289.348 - 0.007ms returns 72202
T2577C 000:289.354 JLINK_GetOEMString(...)
T2577C 000:289.360 JLINK_GetFirmwareString(...)
T2577C 000:289.368 - 0.010ms
T2577C 000:289.385 JLINK_GetDLLVersion()
T2577C 000:289.391 - 0.008ms returns 72202
T2577C 000:289.396 JLINK_GetCompileDateTime()
T2577C 000:289.402 - 0.008ms
T2577C 000:289.412 JLINK_GetFirmwareString(...)
T2577C 000:289.418 - 0.007ms
T2577C 000:289.426 JLINK_GetHardwareVersion()
T2577C 000:289.431 - 0.007ms returns 92000
T2577C 000:289.441 JLINK_GetSN()
T2577C 000:289.448 - 0.009ms returns 59800877
T2577C 000:289.457 JLINK_GetOEMString(...)
T2577C 000:289.471 JLINK_TIF_Select(JLINKARM_TIF_SWD)
T2577C 000:290.780 - 1.313ms returns 0x00
T2577C 000:290.789 JLINK_HasError()
T2577C 000:290.800 JLINK_SetSpeed(5000)
T2577C 000:291.107 - 0.310ms
T2577C 000:291.115 JLINK_GetId()
T2577C 000:291.484   InitTarget() start
T2577C 000:291.494    J-Link Script File: Executing InitTarget()
T2577C 000:302.443   InitTarget() end
T2577C 000:303.453   Found SW-DP with ID 0x2BA01477
T2577C 000:306.867   DPIDR: 0x2BA01477
T2577C 000:306.891   Scanning AP map to find all available APs
T2577C 000:307.879   AP[1]: Stopped AP scan as end of AP map has been reached
T2577C 000:307.892   AP[0]: AHB-AP (IDR: 0x24770011)
T2577C 000:307.902   Iterating through AP map to find AHB-AP to use
T2577C 000:309.112   AP[0]: Core found
T2577C 000:309.126   AP[0]: AHB-AP ROM base: 0xE00FF000
T2577C 000:309.728   CPUID register: 0x410FC241. Implementer code: 0x41 (ARM)
T2577C 000:309.754   Found Cortex-M4 r0p1, Little endian.
T2577C 000:411.211   -- Max. mem block: 0x000059C8
T2577C 000:411.563   CPU_ReadMem(4 bytes @ 0xE000EDF0)
T2577C 000:412.024   CPU_ReadMem(4 bytes @ 0xE0002000)
T2577C 000:412.503   FPUnit: 6 code (BP) slots and 2 literal slots
T2577C 000:412.516   CPU_ReadMem(4 bytes @ 0xE000EDFC)
T2577C 000:412.986   CPU_WriteMem(4 bytes @ 0xE000EDFC)
T2577C 000:413.482   CPU_ReadMem(4 bytes @ 0xE0001000)
T2577C 000:413.896   CPU_WriteMem(4 bytes @ 0xE0001000)
T2577C 000:414.362   CPU_ReadMem(4 bytes @ 0xE000ED88)
T2577C 000:414.818   CPU_WriteMem(4 bytes @ 0xE000ED88)
T2577C 000:415.320   CPU_ReadMem(4 bytes @ 0xE000ED88)
T2577C 000:415.833   CPU_WriteMem(4 bytes @ 0xE000ED88)
T2577C 000:416.327   CoreSight components:
T2577C 000:416.340   ROMTbl[0] @ E00FF000
T2577C 000:416.349   CPU_ReadMem(64 bytes @ 0xE00FF000)
T2577C 000:417.051   CPU_ReadMem(32 bytes @ 0xE000EFE0)
T2577C 000:417.633   ROMTbl[0][0]: E000E000, CID: B105E00D, PID: 000BB00C SCS-M7
T2577C 000:417.647   CPU_ReadMem(32 bytes @ 0xE0001FE0)
T2577C 000:418.363   ROMTbl[0][1]: E0001000, CID: B105E00D, PID: 003BB002 DWT
T2577C 000:418.382   CPU_ReadMem(32 bytes @ 0xE0002FE0)
T2577C 000:418.985   ROMTbl[0][2]: E0002000, CID: B105E00D, PID: 002BB003 FPB
T2577C 000:418.999   CPU_ReadMem(32 bytes @ 0xE0000FE0)
T2577C 000:419.612   ROMTbl[0][3]: E0000000, CID: B105E00D, PID: 003BB001 ITM
T2577C 000:419.623   CPU_ReadMem(32 bytes @ 0xE0040FE0)
T2577C 000:420.238   ROMTbl[0][4]: E0040000, CID: B105900D, PID: 000BB9A1 TPIU
T2577C 000:420.248   CPU_ReadMem(32 bytes @ 0xE0041FE0)
T2577C 000:420.863   ROMTbl[0][5]: E0041000, CID: B105900D, PID: 000BB925 ETM
T2577C 000:421.317 - 130.206ms returns 0x2BA01477
T2577C 000:421.330 JLINK_GetDLLVersion()
T2577C 000:421.335 - 0.007ms returns 72202
T2577C 000:421.342 JLINK_CORE_GetFound()
T2577C 000:421.347 - 0.007ms returns 0xE0000FF
T2577C 000:421.354 JLINK_GetDebugInfo(0x100 = JLINKARM_ROM_TABLE_ADDR_INDEX)
T2577C 000:421.360   Value=0xE00FF000
T2577C 000:421.367 - 0.015ms returns 0
T2577C 000:421.401 JLINK_GetDebugInfo(0x100 = JLINKARM_ROM_TABLE_ADDR_INDEX)
T2577C 000:421.407   Value=0xE00FF000
T2577C 000:421.414 - 0.015ms returns 0
T2577C 000:421.420 JLINK_GetDebugInfo(0x101 = JLINKARM_DEBUG_INFO_ETM_ADDR_INDEX)
T2577C 000:421.425   Value=0xE0041000
T2577C 000:421.432 - 0.014ms returns 0
T2577C 000:421.440 JLINK_ReadMemEx(0xE0041FD0, 0x20 Bytes, Flags = 0x02000004)
T2577C 000:421.465   CPU_ReadMem(32 bytes @ 0xE0041FD0)
T2577C 000:422.048   Data:  04 00 00 00 00 00 00 00 00 00 00 00 00 00 00 00 ...
T2577C 000:422.056 - 0.619ms returns 32 (0x20)
T2577C 000:422.063 JLINK_GetDebugInfo(0x102 = JLINKARM_DEBUG_INFO_MTB_ADDR_INDEX)
T2577C 000:422.068   Value=0x00000000
T2577C 000:422.075 - 0.014ms returns 0
T2577C 000:422.081 JLINK_GetDebugInfo(0x103 = JLINKARM_DEBUG_INFO_TPIU_ADDR_INDEX)
T2577C 000:422.086   Value=0xE0040000
T2577C 000:422.093 - 0.014ms returns 0
T2577C 000:422.099 JLINK_GetDebugInfo(0x104 = JLINKARM_DEBUG_INFO_ITM_ADDR_INDEX)
T2577C 000:422.104   Value=0xE0000000
T2577C 000:422.111 - 0.014ms returns 0
T2577C 000:422.117 JLINK_GetDebugInfo(0x105 = JLINKARM_DEBUG_INFO_DWT_ADDR_INDEX)
T2577C 000:422.122   Value=0xE0001000
T2577C 000:422.129 - 0.014ms returns 0
T2577C 000:422.134 JLINK_GetDebugInfo(0x106 = JLINKARM_DEBUG_INFO_FPB_ADDR_INDEX)
T2577C 000:422.139   Value=0xE0002000
T2577C 000:422.146 - 0.014ms returns 0
T2577C 000:422.152 JLINK_GetDebugInfo(0x107 = JLINKARM_DEBUG_INFO_NVIC_ADDR_INDEX)
T2577C 000:422.157   Value=0xE000E000
T2577C 000:422.164 - 0.014ms returns 0
T2577C 000:422.170 JLINK_GetDebugInfo(0x10C = JLINKARM_DEBUG_INFO_DBG_ADDR_INDEX)
T2577C 000:422.175   Value=0xE000EDF0
T2577C 000:422.182 - 0.014ms returns 0
T2577C 000:422.187 JLINK_GetDebugInfo(0x01 = Unknown)
T2577C 000:422.193   Value=0x00000001
T2577C 000:422.200 - 0.014ms returns 0
T2577C 000:422.205 JLINK_ReadMemU32(0xE000ED00, 0x1 Items)
T2577C 000:422.213   CPU_ReadMem(4 bytes @ 0xE000ED00)
T2577C 000:422.668   Data:  41 C2 0F 41
T2577C 000:422.679   Debug reg: CPUID
T2577C 000:422.686 - 0.483ms returns 1 (0x1)
T2577C 000:422.693 JLINK_GetDebugInfo(0x10F = JLINKARM_DEBUG_INFO_HAS_CORTEX_M_SECURITY_EXT_INDEX)
T2577C 000:422.699   Value=0x00000000
T2577C 000:422.706 - 0.015ms returns 0
T2577C 000:422.712 JLINK_HasError()
T2577C 000:422.718 JLINK_SetResetType(JLINKARM_CM3_RESET_TYPE_NORMAL)
T2577C 000:422.724 - 0.008ms returns JLINKARM_CM3_RESET_TYPE_NORMAL
T2577C 000:422.729 JLINK_Reset()
T2577C 000:422.741   CPU is running
T2577C 000:422.749   CPU_WriteMem(4 bytes @ 0xE000EDF0)
T2577C 000:423.211   CPU is running
T2577C 000:423.220   CPU_WriteMem(4 bytes @ 0xE000EDFC)
T2577C 000:423.695   Reset: Halt core after reset via DEMCR.VC_CORERESET.
T2577C 000:424.448   Reset: Reset device via AIRCR.SYSRESETREQ.
T2577C 000:424.458   CPU is running
T2577C 000:424.466   CPU_WriteMem(4 bytes @ 0xE000ED0C)
T2577C 000:477.861   CPU_ReadMem(4 bytes @ 0xE000EDF0)
T2577C 000:478.341   CPU_ReadMem(4 bytes @ 0xE000EDF0)
T2577C 000:478.784   CPU is running
T2577C 000:478.793   CPU_WriteMem(4 bytes @ 0xE000EDF0)
T2577C 000:479.337   CPU is running
T2577C 000:479.346   CPU_WriteMem(4 bytes @ 0xE000EDFC)
T2577C 000:485.663   CPU_ReadMem(4 bytes @ 0xE000EDF0)
T2577C 000:488.445   CPU_WriteMem(4 bytes @ 0xE0002000)
T2577C 000:488.942   CPU_ReadMem(4 bytes @ 0xE000EDFC)
T2577C 000:489.468   CPU_ReadMem(4 bytes @ 0xE0001000)
T2577C 000:489.939 - 67.214ms
T2577C 000:489.953 JLINK_HasError()
T2577C 000:489.961 JLINK_ReadReg(R15 (PC))
T2577C 000:489.970 - 0.011ms returns 0x08000330
T2577C 000:489.977 JLINK_ReadReg(XPSR)
T2577C 000:489.982 - 0.007ms returns 0x01000000
T2577C 000:489.989 JLINK_Halt()
T2577C 000:489.994 - 0.007ms returns 0x00
T2577C 000:490.001 JLINK_ReadMemU32(0xE000EDF0, 0x1 Items)
T2577C 000:490.010   CPU_ReadMem(4 bytes @ 0xE000EDF0)
T2577C 000:490.468   Data:  03 00 03 00
T2577C 000:490.477   Debug reg: DHCSR
T2577C 000:490.484 - 0.484ms returns 1 (0x1)
T2577C 000:490.491 JLINK_WriteU32_64(0xE000EDF0, 0xA05F0003)
T2577C 000:490.499   Debug reg: DHCSR
T2577C 000:490.729   CPU_WriteMem(4 bytes @ 0xE000EDF0)
T2577C 000:491.336 - 0.848ms returns 0 (0x00000000)
T2577C 000:491.345 JLINK_WriteU32_64(0xE000EDFC, 0x01000000)
T2577C 000:491.351   Debug reg: DEMCR
T2577C 000:491.360   CPU_WriteMem(4 bytes @ 0xE000EDFC)
T2577C 000:491.858 - 0.516ms returns 0 (0x00000000)
T2577C 000:491.899 JLINK_GetHWStatus(...)
T2577C 000:492.339 - 0.443ms returns 0
T2577C 000:492.359 JLINK_GetNumBPUnits(Type = 0xFFFFFF00)
T2577C 000:492.365 - 0.008ms returns 0x06
T2577C 000:492.371 JLINK_GetNumBPUnits(Type = 0xF0)
T2577C 000:492.376 - 0.007ms returns 0x2000
T2577C 000:492.382 JLINK_GetNumWPUnits()
T2577C 000:492.387 - 0.007ms returns 4
T2577C 000:492.401 JLINK_GetSpeed()
T2577C 000:492.406 - 0.007ms returns 4000
T2577C 000:492.416 JLINK_ReadMemU32(0xE000E004, 0x1 Items)
T2577C 000:492.425   CPU_ReadMem(4 bytes @ 0xE000E004)
T2577C 000:492.897   Data:  02 00 00 00
T2577C 000:492.906 - 0.492ms returns 1 (0x1)
T2577C 000:492.912 JLINK_ReadMemU32(0xE000E004, 0x1 Items)
T2577C 000:492.920   CPU_ReadMem(4 bytes @ 0xE000E004)
T2577C 000:493.467   Data:  02 00 00 00
T2577C 000:493.476 - 0.565ms returns 1 (0x1)
T2577C 000:493.483 JLINK_WriteMemEx(0xE0001000, 0x0000001C Bytes, Flags = 0x02000004)
T2577C 000:493.489   Data:  01 00 00 00 00 00 00 00 00 00 00 00 00 00 00 00 ...
T2577C 000:493.499   CPU_WriteMem(28 bytes @ 0xE0001000)
T2577C 000:494.085 - 0.607ms returns 0x1C
T2577C 000:494.094 JLINK_HasError()
T2577C 000:494.101 JLINK_ReadReg(R15 (PC))
T2577C 000:494.107 - 0.009ms returns 0x08000330
T2577C 000:494.113 JLINK_ReadReg(XPSR)
T2577C 000:494.118 - 0.007ms returns 0x01000000
T2577C 000:497.449 JLINK_SWO_Control(JLINKARM_SWO_CMD_GET_SPEED_INFO, ...)
T2577C 000:497.896 - 0.460ms returns 0x00
T2577C 000:497.917 JLINK_SWO_Control(JLINKARM_SWO_CMD_STOP, ...)
T2577C 000:497.926 - 0.012ms returns 0x00
T2577C 000:497.934 JLINK_SWO_Control(JLINKARM_SWO_CMD_START, ...)
T2577C 000:498.489    -- UART
T2577C 000:498.505    -- 7304347bps
T2577C 000:499.220   CPU_ReadMem(4 bytes @ 0xE0042004)
T2577C 000:500.124 - 2.197ms returns 0x00
T2577C 000:500.138 JLINK_WriteU32_64(0xE0040010, 0x00000016)
T2577C 000:500.144   Debug reg: TPIU_ACPR
T2577C 000:500.159 - 0.024ms returns 0 (0x00000000)
T2577C 000:500.165 JLINK_WriteU32_64(0xE00400F0, 0x00000002)
T2577C 000:500.171   Debug reg: TPIU_SPPR
T2577C 000:500.180 - 0.017ms returns 0 (0x00000000)
T2577C 000:500.186 JLINK_WriteU32_64(0xE0040304, 0x00000000)
T2577C 000:500.192   Debug reg: TPIU_FFCR
T2577C 000:500.200 - 0.016ms returns 0 (0x00000000)
T2577C 000:500.206 JLINK_WriteU32_64(0xE0000FB0, 0xC5ACCE55)
T2577C 000:500.215   Debug reg: ITM_LOCKACCESS
T2577C 000:500.227   CPU_WriteMem(4 bytes @ 0xE0000FB0)
T2577C 000:500.649 - 0.450ms returns 0 (0x00000000)
T2577C 000:500.661 JLINK_WriteU32_64(0xE0000E80, 0x0001000D)
T2577C 000:500.667   Debug reg: ITM_TCR
T2577C 000:500.678 - 0.019ms returns 0 (0x00000000)
T2577C 000:500.684 JLINK_WriteU32_64(0xE0000E00, 0xFFFFFFFF)
T2577C 000:500.689   Debug reg: ITM_TER
T2577C 000:500.699 - 0.017ms returns 0 (0x00000000)
T2577C 000:500.705 JLINK_WriteU32_64(0xE0000E40, 0x00000008)
T2577C 000:500.710   Debug reg: ITM_TPR
T2577C 000:500.718 - 0.016ms returns 0 (0x00000000)
T2577C 000:500.724 JLINK_WriteU32_64(0xE0001000, 0x00010A1F)
T2577C 000:500.730   Debug reg: DWT_CTRL
T2577C 000:500.738 - 0.016ms returns 0 (0x00000000)
T2577C 000:525.726 JLINK_ReadMemEx(0xE0001004, 0x4 Bytes, Flags = 0x02000000)
T2577C 000:525.781   Data:  00 00 00 00
T2577C 000:525.790   Debug reg: DWT_CYCCNT
T2577C 000:525.797 - 0.074ms returns 4 (0x4)
T2577C 000:646.217 JLINK_HasError()
T2577C 000:646.243 JLINK_SetResetType(JLINKARM_CM3_RESET_TYPE_NORMAL)
T2577C 000:646.249 - 0.009ms returns JLINKARM_CM3_RESET_TYPE_NORMAL
T2577C 000:646.256 JLINK_Reset()
T2577C 000:646.268   CPU_WriteMem(4 bytes @ 0xE0000E00)
T2577C 000:646.276   CPU_WriteMem(4 bytes @ 0xE0000E40)
T2577C 000:646.284   CPU_WriteMem(4 bytes @ 0xE0000E80)
T2577C 000:646.291   CPU_WriteMem(4 bytes @ 0xE0001000)
T2577C 000:646.299   CPU_WriteMem(4 bytes @ 0xE0040010)
T2577C 000:646.306   CPU_WriteMem(4 bytes @ 0xE00400F0)
T2577C 000:646.313   CPU_WriteMem(4 bytes @ 0xE0040304)
T2577C 000:647.634   CPU_WriteMem(4 bytes @ 0xE000EDF0)
T2577C 000:648.106   CPU_WriteMem(4 bytes @ 0xE000EDFC)
T2577C 000:648.593   Reset: Halt core after reset via DEMCR.VC_CORERESET.
T2577C 000:649.436   Reset: Reset device via AIRCR.SYSRESETREQ.
T2577C 000:649.446   CPU_WriteMem(4 bytes @ 0xE000ED0C)
T2577C 000:703.137   CPU_ReadMem(4 bytes @ 0xE000EDF0)
T2577C 000:703.606   CPU_ReadMem(4 bytes @ 0xE000EDF0)
T2577C 000:704.083   CPU_WriteMem(4 bytes @ 0xE000EDF0)
T2577C 000:704.523   CPU_WriteMem(4 bytes @ 0xE000EDFC)
T2577C 000:710.153   CPU_ReadMem(4 bytes @ 0xE000EDF0)
T2577C 000:712.907   CPU_WriteMem(4 bytes @ 0xE0002000)
T2577C 000:713.517   CPU_ReadMem(4 bytes @ 0xE000EDFC)
T2577C 000:713.981   CPU_ReadMem(4 bytes @ 0xE0001000)
T2577C 000:714.471   CPU_ReadMem(4 bytes @ 0xE0042004)
T2577C 000:714.936 - 68.684ms
T2577C 000:714.949 JLINK_WriteU32_64(0xE000EDFC, 0x01000000)
T2577C 000:714.956   Debug reg: DEMCR
T2577C 000:714.969   CPU_WriteMem(4 bytes @ 0xE000EDFC)
T2577C 000:715.496 - 0.558ms returns 0 (0x00000000)
T2577C 000:715.904 JLINK_HasError()
T2577C 000:715.925 JLINK_ReadReg(R15 (PC))
T2577C 000:715.939 - 0.018ms returns 0x08000330
T2577C 000:715.949 JLINK_ReadReg(XPSR)
T2577C 000:715.957 - 0.011ms returns 0x01000000
T2577C 000:721.844 JLINK_ReadMemEx(0x08000330, 0x3C Bytes, Flags = 0x02000000)
T2577C 000:721.874   CPU_ReadMem(128 bytes @ 0x08000300)
T2577C 000:722.816    -- Updating C cache (128 bytes @ 0x08000300)
T2577C 000:722.834    -- Read from C cache (60 bytes @ 0x08000330)
T2577C 000:722.845   Data:  09 48 80 47 09 48 00 47 FE E7 FE E7 FE E7 FE E7 ...
T2577C 000:722.854 - 1.013ms returns 60 (0x3C)
T2577C 000:722.866 JLINK_ReadMemEx(0x08000330, 0x2 Bytes, Flags = 0x02000000)
T2577C 000:722.873    -- Read from C cache (2 bytes @ 0x08000330)
T2577C 000:722.881   Data:  09 48
T2577C 000:722.888 - 0.024ms returns 2 (0x2)
T2577C 000:723.436 JLINK_ReadMemEx(0x08000332, 0x2 Bytes, Flags = 0x02000000)
T2577C 000:723.451    -- Read from C cache (2 bytes @ 0x08000332)
T2577C 000:723.458   Data:  80 47
T2577C 000:723.466 - 0.031ms returns 2 (0x2)
T2577C 000:943.907 JLINK_WriteU32_64(0xE0001008, 0x00000000)
T2577C 000:943.931   Debug reg: DWT_CPICNT
T2577C 000:943.948 - 0.044ms returns 0 (0x00000000)
T2577C 000:943.955 JLINK_WriteU32_64(0xE000100C, 0x00000000)
T2577C 000:943.961   Debug reg: DWT_EXCCNT
T2577C 000:943.969 - 0.016ms returns 0 (0x00000000)
T2577C 000:943.975 JLINK_WriteU32_64(0xE0001010, 0x00000000)
T2577C 000:944.033   Debug reg: DWT_SLEEPCNT
T2577C 000:944.043 - 0.070ms returns 0 (0x00000000)
T2577C 000:944.050 JLINK_WriteU32_64(0xE0001014, 0x00000000)
T2577C 000:944.055   Debug reg: DWT_LSUCNT
T2577C 000:944.063 - 0.016ms returns 0 (0x00000000)
T2577C 000:944.069 JLINK_WriteU32_64(0xE0001018, 0x00000000)
T2577C 000:944.075   Debug reg: DWT_FOLDCNT
T2577C 000:944.083 - 0.016ms returns 0 (0x00000000)
T2577C 003:313.373 JLINK_ReadMemEx(0x08000332, 0x2 Bytes, Flags = 0x02000000)
T2577C 003:313.469    -- Read from C cache (2 bytes @ 0x08000332)
T2577C 003:313.478   Data:  80 47
T2577C 003:313.486 - 0.115ms returns 2 (0x2)
T2577C 003:313.494 JLINK_ReadMemEx(0x08000334, 0x3C Bytes, Flags = 0x02000000)
T2577C 003:313.501    -- Read from C cache (60 bytes @ 0x08000334)
T2577C 003:313.508   Data:  09 48 00 47 FE E7 FE E7 FE E7 FE E7 FE E7 FE E7 ...
T2577C 003:313.515 - 0.023ms returns 60 (0x3C)
T2577C 003:313.521 JLINK_ReadMemEx(0x08000334, 0x2 Bytes, Flags = 0x02000000)
T2577C 003:313.527    -- Read from C cache (2 bytes @ 0x08000334)
T2577C 003:313.534   Data:  09 48
T2577C 003:313.541 - 0.022ms returns 2 (0x2)
T2577C 003:313.552 JLINK_ReadMemEx(0x08000334, 0x3C Bytes, Flags = 0x02000000)
T2577C 003:313.558    -- Read from C cache (60 bytes @ 0x08000334)
T2577C 003:313.566   Data:  09 48 00 47 FE E7 FE E7 FE E7 FE E7 FE E7 FE E7 ...
T2577C 003:313.573 - 0.023ms returns 60 (0x3C)
T2577C 003:313.578 JLINK_ReadMemEx(0x08000334, 0x2 Bytes, Flags = 0x02000000)
T2577C 003:313.584    -- Read from C cache (2 bytes @ 0x08000334)
T2577C 003:313.591   Data:  09 48
T2577C 003:313.598 - 0.022ms returns 2 (0x2)
T2577C 003:313.604 JLINK_ReadMemEx(0x08000336, 0x2 Bytes, Flags = 0x02000000)
T2577C 003:313.610    -- Read from C cache (2 bytes @ 0x08000336)
T2577C 003:313.617   Data:  00 47
T2577C 003:313.624 - 0.022ms returns 2 (0x2)
T2577C 003:729.520 JLINK_HasError()
T2577C 003:729.550 JLINK_ReadReg(R0)
T2577C 003:730.026 - 0.487ms returns 0x00000000
T2577C 003:730.043 JLINK_ReadReg(R1)
T2577C 003:730.049 - 0.008ms returns 0x00000000
T2577C 003:730.055 JLINK_ReadReg(R2)
T2577C 003:730.060 - 0.007ms returns 0x00000000
T2577C 003:730.066 JLINK_ReadReg(R3)
T2577C 003:730.071 - 0.007ms returns 0x00000000
T2577C 003:730.077 JLINK_ReadReg(R4)
T2577C 003:730.082 - 0.007ms returns 0x00000000
T2577C 003:730.088 JLINK_ReadReg(R5)
T2577C 003:730.093 - 0.007ms returns 0x00000000
T2577C 003:730.099 JLINK_ReadReg(R6)
T2577C 003:730.104 - 0.007ms returns 0x00000000
T2577C 003:730.110 JLINK_ReadReg(R7)
T2577C 003:730.115 - 0.008ms returns 0x00000000
T2577C 003:730.122 JLINK_ReadReg(R8)
T2577C 003:730.143 - 0.023ms returns 0x00000000
T2577C 003:730.150 JLINK_ReadReg(R9)
T2577C 003:730.158 - 0.010ms returns 0x00000000
T2577C 003:730.165 JLINK_ReadReg(R10)
T2577C 003:730.172 - 0.010ms returns 0x00000000
T2577C 003:730.180 JLINK_ReadReg(R11)
T2577C 003:730.187 - 0.010ms returns 0x00000000
T2577C 003:730.194 JLINK_ReadReg(R12)
T2577C 003:730.201 - 0.009ms returns 0x00000000
T2577C 003:730.208 JLINK_ReadReg(R13 (SP))
T2577C 003:730.215 - 0.010ms returns 0x2000A2F0
T2577C 003:730.223 JLINK_ReadReg(R14)
T2577C 003:730.229 - 0.010ms returns 0xFFFFFFFF
T2577C 003:730.237 JLINK_ReadReg(R15 (PC))
T2577C 003:730.243 - 0.009ms returns 0x08000330
T2577C 003:730.251 JLINK_ReadReg(XPSR)
T2577C 003:730.258 - 0.010ms returns 0x01000000
T2577C 003:730.266 JLINK_ReadReg(MSP)
T2577C 003:730.272 - 0.009ms returns 0x2000A2F0
T2577C 003:730.280 JLINK_ReadReg(PSP)
T2577C 003:730.286 - 0.009ms returns 0x00000000
T2577C 003:730.294 JLINK_ReadReg(CFBP)
T2577C 003:730.301 - 0.010ms returns 0x00000000
T2577C 003:730.308 JLINK_ReadReg(FPSCR)
T2577C 003:733.623 - 3.336ms returns 0x00000000
T2577C 003:733.654 JLINK_ReadReg(FPS0)
T2577C 003:733.663 - 0.011ms returns 0x00000000
T2577C 003:733.670 JLINK_ReadReg(FPS1)
T2577C 003:733.676 - 0.009ms returns 0x00000000
T2577C 003:733.683 JLINK_ReadReg(FPS2)
T2577C 003:733.688 - 0.008ms returns 0x00000000
T2577C 003:733.695 JLINK_ReadReg(FPS3)
T2577C 003:733.709 - 0.016ms returns 0x00000000
T2577C 003:733.716 JLINK_ReadReg(FPS4)
T2577C 003:733.721 - 0.008ms returns 0x00000000
T2577C 003:733.728 JLINK_ReadReg(FPS5)
T2577C 003:733.733 - 0.007ms returns 0x00000000
T2577C 003:733.739 JLINK_ReadReg(FPS6)
T2577C 003:733.745 - 0.007ms returns 0x00000000
T2577C 003:733.751 JLINK_ReadReg(FPS7)
T2577C 003:733.756 - 0.007ms returns 0x00000000
T2577C 003:733.763 JLINK_ReadReg(FPS8)
T2577C 003:733.768 - 0.007ms returns 0x00000000
T2577C 003:733.775 JLINK_ReadReg(FPS9)
T2577C 003:733.780 - 0.007ms returns 0x00000000
T2577C 003:733.787 JLINK_ReadReg(FPS10)
T2577C 003:733.794 - 0.010ms returns 0x00000000
T2577C 003:733.803 JLINK_ReadReg(FPS11)
T2577C 003:733.810 - 0.010ms returns 0x00000000
T2577C 003:733.818 JLINK_ReadReg(FPS12)
T2577C 003:733.826 - 0.010ms returns 0x00000000
T2577C 003:733.834 JLINK_ReadReg(FPS13)
T2577C 003:733.842 - 0.011ms returns 0x00000000
T2577C 003:733.851 JLINK_ReadReg(FPS14)
T2577C 003:733.858 - 0.011ms returns 0x00000000
T2577C 003:733.867 JLINK_ReadReg(FPS15)
T2577C 003:733.873 - 0.007ms returns 0x00000000
T2577C 003:733.879 JLINK_ReadReg(FPS16)
T2577C 003:733.884 - 0.007ms returns 0x00000000
T2577C 003:733.891 JLINK_ReadReg(FPS17)
T2577C 003:733.896 - 0.007ms returns 0x00000000
T2577C 003:733.903 JLINK_ReadReg(FPS18)
T2577C 003:733.908 - 0.007ms returns 0x00000000
T2577C 003:733.914 JLINK_ReadReg(FPS19)
T2577C 003:733.920 - 0.007ms returns 0x00000000
T2577C 003:733.926 JLINK_ReadReg(FPS20)
T2577C 003:733.931 - 0.007ms returns 0x00000000
T2577C 003:733.938 JLINK_ReadReg(FPS21)
T2577C 003:733.943 - 0.007ms returns 0x00000000
T2577C 003:733.950 JLINK_ReadReg(FPS22)
T2577C 003:733.955 - 0.007ms returns 0x00000000
T2577C 003:733.961 JLINK_ReadReg(FPS23)
T2577C 003:733.966 - 0.007ms returns 0x00000000
T2577C 003:733.973 JLINK_ReadReg(FPS24)
T2577C 003:733.978 - 0.007ms returns 0x00000000
T2577C 003:733.985 JLINK_ReadReg(FPS25)
T2577C 003:733.990 - 0.007ms returns 0x00000000
T2577C 003:733.996 JLINK_ReadReg(FPS26)
T2577C 003:734.002 - 0.007ms returns 0x00000000
T2577C 003:734.008 JLINK_ReadReg(FPS27)
T2577C 003:734.013 - 0.007ms returns 0x00000000
T2577C 003:734.020 JLINK_ReadReg(FPS28)
T2577C 003:734.025 - 0.007ms returns 0x00000000
T2577C 003:734.032 JLINK_ReadReg(FPS29)
T2577C 003:734.037 - 0.007ms returns 0x00000000
T2577C 003:734.043 JLINK_ReadReg(FPS30)
T2577C 003:734.049 - 0.007ms returns 0x00000000
T2577C 003:734.055 JLINK_ReadReg(FPS31)
T2577C 003:734.060 - 0.007ms returns 0x00000000
T2577C 003:761.172 JLINK_ReadMemEx(0x20000094, 0x4 Bytes, Flags = 0x02000000)
T2577C 003:761.207   CPU_ReadMem(64 bytes @ 0x20000080)
T2577C 003:761.893    -- Updating C cache (64 bytes @ 0x20000080)
T2577C 003:761.905    -- Read from C cache (4 bytes @ 0x20000094)
T2577C 003:761.913   Data:  00 00 00 00
T2577C 003:761.921 - 0.751ms returns 4 (0x4)
T2577C 003:769.473 JLINK_ReadMemEx(0x20000094, 0x4 Bytes, Flags = 0x02000000)
T2577C 003:769.507    -- Read from C cache (4 bytes @ 0x20000094)
T2577C 003:769.515   Data:  00 00 00 00
T2577C 003:769.523 - 0.052ms returns 4 (0x4)
T2577C 003:769.549 JLINK_ReadMemEx(0x20000094, 0x4 Bytes, Flags = 0x02000000)
T2577C 003:769.557    -- Read from C cache (4 bytes @ 0x20000094)
T2577C 003:769.564   Data:  00 00 00 00
T2577C 003:769.572 - 0.025ms returns 4 (0x4)
T2577C 003:774.840 JLINK_ReadMemEx(0x20000098, 0x4 Bytes, Flags = 0x02000000)
T2577C 003:774.870    -- Read from C cache (4 bytes @ 0x20000098)
T2577C 003:774.878   Data:  00 00 00 00
T2577C 003:774.886 - 0.048ms returns 4 (0x4)
T2577C 003:775.236 JLINK_ReadMemEx(0x20000098, 0x4 Bytes, Flags = 0x02000000)
T2577C 003:775.246    -- Read from C cache (4 bytes @ 0x20000098)
T2577C 003:775.253   Data:  00 00 00 00
T2577C 003:775.261 - 0.027ms returns 4 (0x4)
T2577C 003:775.283 JLINK_ReadMemEx(0x20000098, 0x4 Bytes, Flags = 0x02000000)
T2577C 003:775.289    -- Read from C cache (4 bytes @ 0x20000098)
T2577C 003:775.297   Data:  00 00 00 00
T2577C 003:775.304 - 0.023ms returns 4 (0x4)
T2577C 003:790.679 JLINK_ReadMemEx(0x20000098, 0x4 Bytes, Flags = 0x02000000)
T2577C 003:790.711    -- Read from C cache (4 bytes @ 0x20000098)
T2577C 003:790.720   Data:  00 00 00 00
T2577C 003:790.727 - 0.051ms returns 4 (0x4)
T2577C 003:790.746 JLINK_ReadMemEx(0x20000098, 0x4 Bytes, Flags = 0x02000000)
T2577C 003:790.754    -- Read from C cache (4 bytes @ 0x20000098)
T2577C 003:790.761   Data:  00 00 00 00
T2577C 003:790.768 - 0.024ms returns 4 (0x4)
T2577C 003:790.788 JLINK_ReadMemEx(0x20000098, 0x4 Bytes, Flags = 0x02000000)
T2577C 003:790.795    -- Read from C cache (4 bytes @ 0x20000098)
T2577C 003:790.803   Data:  00 00 00 00
T2577C 003:790.809 - 0.023ms returns 4 (0x4)
T19B80 003:892.828 JLINK_ReadMemEx(0x08000330, 0x2 Bytes, Flags = 0x02000000)
T19B80 003:892.892    -- Read from C cache (2 bytes @ 0x08000330)
T19B80 003:892.905   Data:  09 48
T19B80 003:892.918 - 0.093ms returns 2 (0x2)
T19B80 003:892.929 JLINK_HasError()
T19B80 003:892.944 JLINK_SetBPEx(Addr = 0x0800D13C, Type = 0xFFFFFFF2)
T19B80 003:892.960 - 0.020ms returns 0x00000001
T19B80 003:892.970 JLINK_HasError()
T19B80 003:892.980 JLINK_SetBPEx(Addr = 0x0800CA28, Type = 0xFFFFFFF2)
T19B80 003:892.992 - 0.015ms returns 0x00000002
T19B80 003:893.001 JLINK_HasError()
T19B80 003:893.010 JLINK_SetBPEx(Addr = 0x0800CA12, Type = 0xFFFFFFF2)
T19B80 003:893.017 - 0.012ms returns 0x00000003
T19B80 003:893.029 JLINK_HasError()
T19B80 003:893.041 JLINK_HasError()
T19B80 003:893.056 JLINK_ReadMemU32(0xE0001004, 0x1 Items)
T19B80 003:893.082   Data:  00 00 00 00
T19B80 003:893.103   Debug reg: DWT_CYCCNT
T19B80 003:893.110 - 0.057ms returns 1 (0x1)
T19B80 003:893.117 JLINK_WriteU32_64(0xE0001004, 0x000003FF)
T19B80 003:893.123   Debug reg: DWT_CYCCNT
T19B80 003:893.136 - 0.022ms returns 0 (0x00000000)
T19B80 003:893.143 JLINK_WriteU32_64(0xE0001000, 0x00410A1F)
T19B80 003:893.148   Debug reg: DWT_CTRL
T19B80 003:893.157 - 0.017ms returns 0 (0x00000000)
T19B80 003:893.164 JLINK_WriteU32_64(0xE0000E80, 0x0001000F)
T19B80 003:893.170   Debug reg: ITM_TCR
T19B80 003:893.180 - 0.019ms returns 0 (0x00000000)
T19B80 003:893.201 JLINK_SWO_Control(JLINKARM_SWO_CMD_GET_NUM_BYTES, ...)
T19B80 003:893.212 - 0.014ms returns 0x00
T19B80 003:893.221 JLINK_Go()
T19B80 003:893.262   CPU_WriteMem(4 bytes @ 0xE0002000)
T19B80 003:893.842   CPU_WriteMem(4 bytes @ 0xE0002000)
T19B80 003:894.327   CPU_WriteMem(4 bytes @ 0xE0002000)
T19B80 003:894.821   CPU_WriteMem(4 bytes @ 0xE0001000)
T19B80 003:895.336   CPU_ReadMem(4 bytes @ 0xE0001000)
T19B80 003:895.799   CPU_WriteMem(4 bytes @ 0xE0000E80)
T19B80 003:895.817   CPU_WriteMem(4 bytes @ 0xE0001008)
T19B80 003:895.825   CPU_WriteMem(4 bytes @ 0xE000100C)
T19B80 003:895.832   CPU_WriteMem(4 bytes @ 0xE0001010)
T19B80 003:895.840   CPU_WriteMem(4 bytes @ 0xE0001014)
T19B80 003:895.850   CPU_WriteMem(4 bytes @ 0xE0001018)
T19B80 003:895.857   CPU_WriteMem(4 bytes @ 0xE0002008)
T19B80 003:895.864   CPU_WriteMem(4 bytes @ 0xE000200C)
T19B80 003:895.872   CPU_WriteMem(4 bytes @ 0xE0002010)
T19B80 003:895.879   CPU_WriteMem(4 bytes @ 0xE0002014)
T19B80 003:895.887   CPU_WriteMem(4 bytes @ 0xE0002018)
T19B80 003:895.894   CPU_WriteMem(4 bytes @ 0xE000201C)
T19B80 003:898.010   CPU_WriteMem(4 bytes @ 0xE0001004)
T19B80 003:899.118 - 5.915ms
T19B80 003:899.146 JLINK_WriteU32_64(0xE0001000, 0x00010A1F)
T19B80 003:899.153   Debug reg: DWT_CTRL
T19B80 003:899.169   CPU is running
T19B80 003:899.179   CPU_WriteMem(4 bytes @ 0xE0001000)
T19B80 003:899.860 - 0.723ms returns 0 (0x00000000)
T19B80 003:999.928 JLINK_SWO_Read(..., Offset = 0x00, NumBytes = 0x400000)
T19B80 003:999.948   Data: 
T19B80 003:999.956 - 0.030ms returns NumBytesRead = 0x00
T19B80 003:999.962 JLINK_SWO_Control(JLINKARM_SWO_CMD_FLUSH, ...)
T19B80 003:999.968 - 0.008ms returns 0x00
T19B80 003:999.975 JLINK_HasError()
T19B80 003:999.983 JLINK_IsHalted()
T19B80 004:002.349 - 2.378ms returns TRUE
T19B80 004:002.368 JLINK_HasError()
T19B80 004:002.792 JLINK_Halt()
T19B80 004:002.804 - 0.014ms returns 0x00
T19B80 004:002.813 JLINK_IsHalted()
T19B80 004:002.821 - 0.010ms returns TRUE
T19B80 004:002.827 JLINK_IsHalted()
T19B80 004:002.832 - 0.007ms returns TRUE
T19B80 004:002.838 JLINK_IsHalted()
T19B80 004:002.843 - 0.008ms returns TRUE
T19B80 004:002.851 JLINK_HasError()
T19B80 004:002.857 JLINK_ReadReg(R15 (PC))
T19B80 004:002.866 - 0.011ms returns 0x0800D13C
T19B80 004:002.872 JLINK_ReadReg(XPSR)
T19B80 004:002.877 - 0.008ms returns 0x21000000
T19B80 004:002.884 JLINK_SWO_Read(..., Offset = 0x00, NumBytes = 0x400000)
T19B80 004:002.890   Data: 
T19B80 004:002.897 - 0.015ms returns NumBytesRead = 0x00
T19B80 004:002.903 JLINK_SWO_Control(JLINKARM_SWO_CMD_FLUSH, ...)
T19B80 004:002.909 - 0.008ms returns 0x00
T19B80 004:002.917 JLINK_HasError()
T19B80 004:002.923 JLINK_ClrBPEx(BPHandle = 0x00000001)
T19B80 004:002.929 - 0.008ms returns 0x00
T19B80 004:002.935 JLINK_HasError()
T19B80 004:002.941 JLINK_ClrBPEx(BPHandle = 0x00000002)
T19B80 004:002.946 - 0.007ms returns 0x00
T19B80 004:002.951 JLINK_HasError()
T19B80 004:002.957 JLINK_ClrBPEx(BPHandle = 0x00000003)
T19B80 004:002.963 - 0.008ms returns 0x00
T19B80 004:002.969 JLINK_HasError()
T19B80 004:002.974 JLINK_HasError()
T19B80 004:002.980 JLINK_ReadMemU32(0xE000ED30, 0x1 Items)
T19B80 004:002.991   CPU_ReadMem(4 bytes @ 0xE000ED30)
T19B80 004:003.467   Data:  02 00 00 00
T19B80 004:003.482 - 0.504ms returns 1 (0x1)
T19B80 004:003.489 JLINK_ReadMemU32(0xE0001028, 0x1 Items)
T19B80 004:003.499   CPU_ReadMem(4 bytes @ 0xE0001028)
T19B80 004:003.998   Data:  00 00 00 00
T19B80 004:004.013   Debug reg: DWT_FUNC[0]
T19B80 004:004.020 - 0.533ms returns 1 (0x1)
T19B80 004:004.028 JLINK_ReadMemU32(0xE0001038, 0x1 Items)
T19B80 004:004.036   CPU_ReadMem(4 bytes @ 0xE0001038)
T19B80 004:004.466   Data:  00 02 00 00
T19B80 004:004.478   Debug reg: DWT_FUNC[1]
T19B80 004:004.484 - 0.458ms returns 1 (0x1)
T19B80 004:004.492 JLINK_ReadMemU32(0xE0001048, 0x1 Items)
T19B80 004:004.501   CPU_ReadMem(4 bytes @ 0xE0001048)
T19B80 004:004.937   Data:  00 00 00 00
T19B80 004:004.947   Debug reg: DWT_FUNC[2]
T19B80 004:004.954 - 0.463ms returns 1 (0x1)
T19B80 004:004.961 JLINK_ReadMemU32(0xE0001058, 0x1 Items)
T19B80 004:004.969   CPU_ReadMem(4 bytes @ 0xE0001058)
T19B80 004:005.485   Data:  00 00 00 00
T19B80 004:005.495   Debug reg: DWT_FUNC[3]
T19B80 004:005.502 - 0.543ms returns 1 (0x1)
T19B80 004:005.904 JLINK_HasError()
T19B80 004:005.912 JLINK_ReadReg(R0)
T19B80 004:005.919 - 0.009ms returns 0x200062F0
T19B80 004:005.925 JLINK_ReadReg(R1)
T19B80 004:005.930 - 0.007ms returns 0x200082F0
T19B80 004:005.936 JLINK_ReadReg(R2)
T19B80 004:005.942 - 0.007ms returns 0x200082F0
T19B80 004:005.947 JLINK_ReadReg(R3)
T19B80 004:005.953 - 0.007ms returns 0x200082F0
T19B80 004:005.958 JLINK_ReadReg(R4)
T19B80 004:005.963 - 0.007ms returns 0x00000000
T19B80 004:005.969 JLINK_ReadReg(R5)
T19B80 004:005.974 - 0.007ms returns 0x20006290
T19B80 004:005.980 JLINK_ReadReg(R6)
T19B80 004:005.985 - 0.007ms returns 0x00000000
T19B80 004:005.991 JLINK_ReadReg(R7)
T19B80 004:005.996 - 0.007ms returns 0x00000000
T19B80 004:006.002 JLINK_ReadReg(R8)
T19B80 004:006.007 - 0.007ms returns 0x00000000
T19B80 004:006.013 JLINK_ReadReg(R9)
T19B80 004:006.018 - 0.007ms returns 0x00000000
T19B80 004:006.024 JLINK_ReadReg(R10)
T19B80 004:006.029 - 0.007ms returns 0x0800F134
T19B80 004:006.035 JLINK_ReadReg(R11)
T19B80 004:006.040 - 0.008ms returns 0x00000000
T19B80 004:006.046 JLINK_ReadReg(R12)
T19B80 004:006.051 - 0.007ms returns 0x20006300
T19B80 004:006.057 JLINK_ReadReg(R13 (SP))
T19B80 004:006.062 - 0.007ms returns 0x2000A2F0
T19B80 004:006.068 JLINK_ReadReg(R14)
T19B80 004:006.073 - 0.007ms returns 0x0800025F
T19B80 004:006.078 JLINK_ReadReg(R15 (PC))
T19B80 004:006.084 - 0.008ms returns 0x0800D13C
T19B80 004:006.090 JLINK_ReadReg(XPSR)
T19B80 004:006.095 - 0.007ms returns 0x21000000
T19B80 004:006.101 JLINK_ReadReg(MSP)
T19B80 004:006.106 - 0.007ms returns 0x2000A2F0
T19B80 004:006.111 JLINK_ReadReg(PSP)
T19B80 004:006.117 - 0.060ms returns 0x00000000
T19B80 004:006.178 JLINK_ReadReg(CFBP)
T19B80 004:006.184 - 0.008ms returns 0x04000000
T19B80 004:006.190 JLINK_ReadReg(FPSCR)
T19B80 004:009.535 - 3.360ms returns 0x03000000
T19B80 004:009.559 JLINK_ReadReg(FPS0)
T19B80 004:009.568 - 0.011ms returns 0x00000000
T19B80 004:009.575 JLINK_ReadReg(FPS1)
T19B80 004:009.580 - 0.008ms returns 0x00000000
T19B80 004:009.587 JLINK_ReadReg(FPS2)
T19B80 004:009.592 - 0.007ms returns 0x00000000
T19B80 004:009.599 JLINK_ReadReg(FPS3)
T19B80 004:009.604 - 0.008ms returns 0x00000000
T19B80 004:009.612 JLINK_ReadReg(FPS4)
T19B80 004:009.618 - 0.009ms returns 0x00000000
T19B80 004:009.626 JLINK_ReadReg(FPS5)
T19B80 004:009.632 - 0.009ms returns 0x00000000
T19B80 004:009.639 JLINK_ReadReg(FPS6)
T19B80 004:009.645 - 0.007ms returns 0x00000000
T19B80 004:009.651 JLINK_ReadReg(FPS7)
T19B80 004:009.656 - 0.007ms returns 0x00000000
T19B80 004:009.663 JLINK_ReadReg(FPS8)
T19B80 004:009.668 - 0.007ms returns 0x00000000
T19B80 004:009.675 JLINK_ReadReg(FPS9)
T19B80 004:009.682 - 0.013ms returns 0x00000000
T19B80 004:009.693 JLINK_ReadReg(FPS10)
T19B80 004:009.700 - 0.009ms returns 0x00000000
T19B80 004:009.707 JLINK_ReadReg(FPS11)
T19B80 004:009.713 - 0.009ms returns 0x00000000
T19B80 004:009.720 JLINK_ReadReg(FPS12)
T19B80 004:009.726 - 0.008ms returns 0x00000000
T19B80 004:009.735 JLINK_ReadReg(FPS13)
T19B80 004:009.742 - 0.010ms returns 0x00000000
T19B80 004:009.749 JLINK_ReadReg(FPS14)
T19B80 004:009.755 - 0.009ms returns 0x00000000
T19B80 004:009.762 JLINK_ReadReg(FPS15)
T19B80 004:009.767 - 0.007ms returns 0x00000000
T19B80 004:009.774 JLINK_ReadReg(FPS16)
T19B80 004:009.779 - 0.007ms returns 0x00000000
T19B80 004:009.786 JLINK_ReadReg(FPS17)
T19B80 004:009.791 - 0.007ms returns 0x00000000
T19B80 004:009.797 JLINK_ReadReg(FPS18)
T19B80 004:009.803 - 0.007ms returns 0x00000000
T19B80 004:009.809 JLINK_ReadReg(FPS19)
T19B80 004:009.815 - 0.008ms returns 0x00000000
T19B80 004:009.822 JLINK_ReadReg(FPS20)
T19B80 004:009.827 - 0.007ms returns 0x00000000
T19B80 004:009.834 JLINK_ReadReg(FPS21)
T19B80 004:009.839 - 0.007ms returns 0x00000000
T19B80 004:009.845 JLINK_ReadReg(FPS22)
T19B80 004:009.851 - 0.008ms returns 0x00000000
T19B80 004:009.857 JLINK_ReadReg(FPS23)
T19B80 004:009.863 - 0.007ms returns 0x00000000
T19B80 004:009.869 JLINK_ReadReg(FPS24)
T19B80 004:009.874 - 0.007ms returns 0x00000000
T19B80 004:009.881 JLINK_ReadReg(FPS25)
T19B80 004:009.886 - 0.007ms returns 0x00000000
T19B80 004:009.893 JLINK_ReadReg(FPS26)
T19B80 004:009.898 - 0.007ms returns 0x00000000
T19B80 004:009.904 JLINK_ReadReg(FPS27)
T19B80 004:009.910 - 0.007ms returns 0x00000000
T19B80 004:009.916 JLINK_ReadReg(FPS28)
T19B80 004:009.921 - 0.007ms returns 0x00000000
T19B80 004:009.928 JLINK_ReadReg(FPS29)
T19B80 004:009.935 - 0.009ms returns 0x00000000
T19B80 004:009.942 JLINK_ReadReg(FPS30)
T19B80 004:009.949 - 0.009ms returns 0x00000000
T19B80 004:009.955 JLINK_ReadReg(FPS31)
T19B80 004:009.961 - 0.008ms returns 0x00000000
T19B80 004:010.379 JLINK_ReadMemEx(0x20000240, 0x4 Bytes, Flags = 0x02000000)
T19B80 004:010.393   CPU_ReadMem(64 bytes @ 0x20000240)
T19B80 004:011.110    -- Updating C cache (64 bytes @ 0x20000240)
T19B80 004:011.125    -- Read from C cache (4 bytes @ 0x20000240)
T19B80 004:011.133   Data:  00 00 00 00
T19B80 004:011.140 - 0.763ms returns 4 (0x4)
T2577C 004:013.968 JLINK_ReadMemEx(0x20000094, 0x4 Bytes, Flags = 0x02000000)
T2577C 004:013.994   CPU_ReadMem(64 bytes @ 0x20000080)
T2577C 004:014.758    -- Updating C cache (64 bytes @ 0x20000080)
T2577C 004:014.768    -- Read from C cache (4 bytes @ 0x20000094)
T2577C 004:014.775   Data:  00 00 00 00
T2577C 004:014.783 - 0.817ms returns 4 (0x4)
T2577C 004:014.820 JLINK_ReadMemEx(0x20000098, 0x4 Bytes, Flags = 0x02000000)
T2577C 004:014.829    -- Read from C cache (4 bytes @ 0x20000098)
T2577C 004:014.836   Data:  00 00 00 00
T2577C 004:014.843 - 0.025ms returns 4 (0x4)
T2577C 004:014.877 JLINK_ReadMemEx(0x20000098, 0x4 Bytes, Flags = 0x02000000)
T2577C 004:014.888    -- Read from C cache (4 bytes @ 0x20000098)
T2577C 004:014.898   Data:  00 00 00 00
T2577C 004:014.905 - 0.030ms returns 4 (0x4)
T2577C 004:022.608 JLINK_ReadMemEx(0x0800D03C, 0x3C Bytes, Flags = 0x02000000)
T2577C 004:022.653   CPU_ReadMem(128 bytes @ 0x0800D000)
T2577C 004:023.649    -- Updating C cache (128 bytes @ 0x0800D000)
T2577C 004:023.664    -- Read from C cache (60 bytes @ 0x0800D03C)
T2577C 004:023.673   Data:  40 0A 10 48 90 ED 00 0A B8 EE C0 0A 04 F5 6D 70 ...
T2577C 004:023.680 - 1.075ms returns 60 (0x3C)
T2577C 004:023.690 JLINK_ReadMemEx(0x0800D03C, 0x2 Bytes, Flags = 0x02000000)
T2577C 004:023.696    -- Read from C cache (2 bytes @ 0x0800D03C)
T2577C 004:023.704   Data:  40 0A
T2577C 004:023.711 - 0.024ms returns 2 (0x2)
T2577C 004:024.091 JLINK_ReadMemEx(0x0800D03E, 0x2 Bytes, Flags = 0x02000000)
T2577C 004:024.106    -- Read from C cache (2 bytes @ 0x0800D03E)
T2577C 004:024.113   Data:  10 48
T2577C 004:024.121 - 0.032ms returns 2 (0x2)
T2577C 004:024.129 JLINK_ReadMemEx(0x0800D03E, 0x2 Bytes, Flags = 0x02000000)
T2577C 004:024.135    -- Read from C cache (2 bytes @ 0x0800D03E)
T2577C 004:024.142   Data:  10 48
T2577C 004:024.149 - 0.022ms returns 2 (0x2)
T2577C 004:024.155 JLINK_ReadMemEx(0x0800D040, 0x3C Bytes, Flags = 0x02000000)
T2577C 004:024.161    -- Read from C cache (60 bytes @ 0x0800D040)
T2577C 004:024.169   Data:  90 ED 00 0A B8 EE C0 0A 04 F5 6D 70 00 F0 CA F8 ...
T2577C 004:024.176 - 0.023ms returns 60 (0x3C)
T2577C 004:024.181 JLINK_ReadMemEx(0x0800D040, 0x2 Bytes, Flags = 0x02000000)
T2577C 004:024.187    -- Read from C cache (2 bytes @ 0x0800D040)
T2577C 004:024.194   Data:  90 ED
T2577C 004:024.201 - 0.022ms returns 2 (0x2)
T2577C 004:024.207 JLINK_ReadMemEx(0x0800D040, 0x3C Bytes, Flags = 0x02000000)
T2577C 004:024.213    -- Read from C cache (60 bytes @ 0x0800D040)
T2577C 004:024.220   Data:  90 ED 00 0A B8 EE C0 0A 04 F5 6D 70 00 F0 CA F8 ...
T2577C 004:024.228 - 0.023ms returns 60 (0x3C)
T2577C 004:024.233 JLINK_ReadMemEx(0x0800D040, 0x2 Bytes, Flags = 0x02000000)
T2577C 004:024.239    -- Read from C cache (2 bytes @ 0x0800D040)
T2577C 004:024.246   Data:  90 ED
T2577C 004:024.253 - 0.022ms returns 2 (0x2)
T2577C 004:024.259 JLINK_ReadMemEx(0x0800D042, 0x2 Bytes, Flags = 0x02000000)
T2577C 004:024.264    -- Read from C cache (2 bytes @ 0x0800D042)
T2577C 004:024.271   Data:  00 0A
T2577C 004:024.279 - 0.022ms returns 2 (0x2)
T2577C 004:024.285 JLINK_ReadMemEx(0x0800D044, 0x3C Bytes, Flags = 0x02000000)
T2577C 004:024.290    -- Read from C cache (60 bytes @ 0x0800D044)
T2577C 004:024.298   Data:  B8 EE C0 0A 04 F5 6D 70 00 F0 CA F8 00 EE 10 0A ...
T2577C 004:024.305 - 0.022ms returns 60 (0x3C)
T2577C 004:024.310 JLINK_ReadMemEx(0x0800D044, 0x2 Bytes, Flags = 0x02000000)
T2577C 004:024.316    -- Read from C cache (2 bytes @ 0x0800D044)
T2577C 004:024.325   Data:  B8 EE
T2577C 004:024.332 - 0.024ms returns 2 (0x2)
T2577C 004:024.338 JLINK_ReadMemEx(0x0800D046, 0x2 Bytes, Flags = 0x02000000)
T2577C 004:024.344    -- Read from C cache (2 bytes @ 0x0800D046)
T2577C 004:024.351   Data:  C0 0A
T2577C 004:024.358 - 0.022ms returns 2 (0x2)
T2577C 004:024.364 JLINK_ReadMemEx(0x0800D048, 0x3C Bytes, Flags = 0x02000000)
T2577C 004:024.372   CPU_ReadMem(64 bytes @ 0x0800D080)
T2577C 004:025.117    -- Updating C cache (64 bytes @ 0x0800D080)
T2577C 004:025.126    -- Read from C cache (60 bytes @ 0x0800D048)
T2577C 004:025.134   Data:  04 F5 6D 70 00 F0 CA F8 00 EE 10 0A B8 EE C0 0A ...
T2577C 004:025.141 - 0.778ms returns 60 (0x3C)
T2577C 004:025.147 JLINK_ReadMemEx(0x0800D048, 0x2 Bytes, Flags = 0x02000000)
T2577C 004:025.153    -- Read from C cache (2 bytes @ 0x0800D048)
T2577C 004:025.161   Data:  04 F5
T2577C 004:025.168 - 0.023ms returns 2 (0x2)
T2577C 004:025.174 JLINK_ReadMemEx(0x0800D04A, 0x2 Bytes, Flags = 0x02000000)
T2577C 004:025.180    -- Read from C cache (2 bytes @ 0x0800D04A)
T2577C 004:025.187   Data:  6D 70
T2577C 004:025.194 - 0.022ms returns 2 (0x2)
T2577C 004:025.201 JLINK_ReadMemEx(0x0800D04C, 0x3C Bytes, Flags = 0x02000000)
T2577C 004:025.212    -- Read from C cache (60 bytes @ 0x0800D04C)
T2577C 004:025.220   Data:  00 F0 CA F8 00 EE 10 0A B8 EE C0 0A 84 ED A4 0A ...
T2577C 004:025.227 - 0.028ms returns 60 (0x3C)
T2577C 004:025.233 JLINK_ReadMemEx(0x0800D04C, 0x2 Bytes, Flags = 0x02000000)
T2577C 004:025.238    -- Read from C cache (2 bytes @ 0x0800D04C)
T2577C 004:025.246   Data:  00 F0
T2577C 004:025.252 - 0.022ms returns 2 (0x2)
T2577C 004:025.258 JLINK_ReadMemEx(0x0800D04E, 0x2 Bytes, Flags = 0x02000000)
T2577C 004:025.264    -- Read from C cache (2 bytes @ 0x0800D04E)
T2577C 004:025.271   Data:  CA F8
T2577C 004:025.278 - 0.022ms returns 2 (0x2)
T2577C 004:025.284 JLINK_ReadMemEx(0x0800D050, 0x3C Bytes, Flags = 0x02000000)
T2577C 004:025.290    -- Read from C cache (60 bytes @ 0x0800D050)
T2577C 004:025.300   Data:  00 EE 10 0A B8 EE C0 0A 84 ED A4 0A 10 BD 00 00 ...
T2577C 004:025.311 - 0.029ms returns 60 (0x3C)
T2577C 004:025.318 JLINK_ReadMemEx(0x0800D050, 0x2 Bytes, Flags = 0x02000000)
T2577C 004:025.324    -- Read from C cache (2 bytes @ 0x0800D050)
T2577C 004:025.331   Data:  00 EE
T2577C 004:025.338 - 0.022ms returns 2 (0x2)
T2577C 004:025.345 JLINK_ReadMemEx(0x0800D052, 0x2 Bytes, Flags = 0x02000000)
T2577C 004:025.350    -- Read from C cache (2 bytes @ 0x0800D052)
T2577C 004:025.357   Data:  10 0A
T2577C 004:025.365 - 0.022ms returns 2 (0x2)
T2577C 004:025.372 JLINK_ReadMemEx(0x0800D054, 0x3C Bytes, Flags = 0x02000000)
T2577C 004:025.379    -- Read from C cache (60 bytes @ 0x0800D054)
T2577C 004:025.388   Data:  B8 EE C0 0A 84 ED A4 0A 10 BD 00 00 00 00 B4 43 ...
T2577C 004:025.394 - 0.025ms returns 60 (0x3C)
T2577C 004:025.401 JLINK_ReadMemEx(0x0800D054, 0x2 Bytes, Flags = 0x02000000)
T2577C 004:025.409    -- Read from C cache (2 bytes @ 0x0800D054)
T2577C 004:025.416   Data:  B8 EE
T2577C 004:025.423 - 0.024ms returns 2 (0x2)
T2577C 004:025.429 JLINK_ReadMemEx(0x0800D056, 0x2 Bytes, Flags = 0x02000000)
T2577C 004:025.435    -- Read from C cache (2 bytes @ 0x0800D056)
T2577C 004:025.442   Data:  C0 0A
T2577C 004:025.450 - 0.022ms returns 2 (0x2)
T2577C 004:025.457 JLINK_ReadMemEx(0x0800D058, 0x3C Bytes, Flags = 0x02000000)
T2577C 004:025.462    -- Read from C cache (60 bytes @ 0x0800D058)
T2577C 004:025.470   Data:  84 ED A4 0A 10 BD 00 00 00 00 B4 43 00 00 00 46 ...
T2577C 004:025.476 - 0.022ms returns 60 (0x3C)
T2577C 004:025.483 JLINK_ReadMemEx(0x0800D058, 0x2 Bytes, Flags = 0x02000000)
T2577C 004:025.489    -- Read from C cache (2 bytes @ 0x0800D058)
T2577C 004:025.496   Data:  84 ED
T2577C 004:025.503 - 0.022ms returns 2 (0x2)
T2577C 004:025.509 JLINK_ReadMemEx(0x0800D05A, 0x2 Bytes, Flags = 0x02000000)
T2577C 004:025.515    -- Read from C cache (2 bytes @ 0x0800D05A)
T2577C 004:025.522   Data:  A4 0A
T2577C 004:025.529 - 0.022ms returns 2 (0x2)
T2577C 004:025.536 JLINK_ReadMemEx(0x0800D05C, 0x3C Bytes, Flags = 0x02000000)
T2577C 004:025.542    -- Read from C cache (60 bytes @ 0x0800D05C)
T2577C 004:025.550   Data:  10 BD 00 00 00 00 B4 43 00 00 00 46 00 00 34 43 ...
T2577C 004:025.556 - 0.022ms returns 60 (0x3C)
T2577C 004:025.562 JLINK_ReadMemEx(0x0800D05C, 0x2 Bytes, Flags = 0x02000000)
T2577C 004:025.568    -- Read from C cache (2 bytes @ 0x0800D05C)
T2577C 004:025.575   Data:  10 BD
T2577C 004:025.582 - 0.022ms returns 2 (0x2)
T2577C 004:025.589 JLINK_ReadMemEx(0x0800D05E, 0x2 Bytes, Flags = 0x02000000)
T2577C 004:025.595    -- Read from C cache (2 bytes @ 0x0800D05E)
T2577C 004:025.602   Data:  00 00
T2577C 004:025.608 - 0.022ms returns 2 (0x2)
T2577C 004:025.616 JLINK_ReadMemEx(0x0800D084, 0x3C Bytes, Flags = 0x02000000)
T2577C 004:025.622    -- Read from C cache (60 bytes @ 0x0800D084)
T2577C 004:025.629   Data:  08 B5 F9 F7 43 FF 01 F0 E3 F8 00 90 05 E0 F9 F7 ...
T2577C 004:025.636 - 0.022ms returns 60 (0x3C)
T2577C 004:025.642 JLINK_ReadMemEx(0x0800D084, 0x2 Bytes, Flags = 0x02000000)
T2577C 004:025.648    -- Read from C cache (2 bytes @ 0x0800D084)
T2577C 004:025.655   Data:  08 B5
T2577C 004:025.665 - 0.025ms returns 2 (0x2)
T2577C 004:025.672 JLINK_ReadMemEx(0x0800D086, 0x2 Bytes, Flags = 0x02000000)
T2577C 004:025.677    -- Read from C cache (2 bytes @ 0x0800D086)
T2577C 004:025.684   Data:  F9 F7
T2577C 004:025.691 - 0.022ms returns 2 (0x2)
T2577C 004:025.698 JLINK_ReadMemEx(0x0800D086, 0x2 Bytes, Flags = 0x02000000)
T2577C 004:025.704    -- Read from C cache (2 bytes @ 0x0800D086)
T2577C 004:025.711   Data:  F9 F7
T2577C 004:025.718 - 0.022ms returns 2 (0x2)
T2577C 004:025.724 JLINK_ReadMemEx(0x0800D088, 0x3C Bytes, Flags = 0x02000000)
T2577C 004:025.731   CPU_ReadMem(64 bytes @ 0x0800D0C0)
T2577C 004:026.427    -- Updating C cache (64 bytes @ 0x0800D0C0)
T2577C 004:026.437    -- Read from C cache (60 bytes @ 0x0800D088)
T2577C 004:026.445   Data:  43 FF 01 F0 E3 F8 00 90 05 E0 F9 F7 A3 FF 01 21 ...
T2577C 004:026.451 - 0.729ms returns 60 (0x3C)
T2577C 004:026.459 JLINK_ReadMemEx(0x0800D088, 0x2 Bytes, Flags = 0x02000000)
T2577C 004:026.465    -- Read from C cache (2 bytes @ 0x0800D088)
T2577C 004:026.472   Data:  43 FF
T2577C 004:026.479 - 0.022ms returns 2 (0x2)
T2577C 004:026.486 JLINK_ReadMemEx(0x0800D08A, 0x2 Bytes, Flags = 0x02000000)
T2577C 004:026.492    -- Read from C cache (2 bytes @ 0x0800D08A)
T2577C 004:026.499   Data:  01 F0
T2577C 004:026.506 - 0.022ms returns 2 (0x2)
T2577C 004:026.513 JLINK_ReadMemEx(0x0800D08C, 0x3C Bytes, Flags = 0x02000000)
T2577C 004:026.518    -- Read from C cache (60 bytes @ 0x0800D08C)
T2577C 004:026.526   Data:  E3 F8 00 90 05 E0 F9 F7 A3 FF 01 21 68 46 00 F0 ...
T2577C 004:026.533 - 0.022ms returns 60 (0x3C)
T2577C 004:026.539 JLINK_ReadMemEx(0x0800D08C, 0x2 Bytes, Flags = 0x02000000)
T2577C 004:026.545    -- Read from C cache (2 bytes @ 0x0800D08C)
T2577C 004:026.552   Data:  E3 F8
T2577C 004:026.559 - 0.022ms returns 2 (0x2)
T2577C 004:026.566 JLINK_ReadMemEx(0x0800D08E, 0x2 Bytes, Flags = 0x02000000)
T2577C 004:026.572    -- Read from C cache (2 bytes @ 0x0800D08E)
T2577C 004:026.578   Data:  00 90
T2577C 004:026.585 - 0.022ms returns 2 (0x2)
T2577C 004:026.592 JLINK_ReadMemEx(0x0800D090, 0x3C Bytes, Flags = 0x02000000)
T2577C 004:026.598    -- Read from C cache (60 bytes @ 0x0800D090)
T2577C 004:026.605   Data:  05 E0 F9 F7 A3 FF 01 21 68 46 00 F0 D7 FD F8 E7 ...
T2577C 004:026.612 - 0.022ms returns 60 (0x3C)
T2577C 004:026.618 JLINK_ReadMemEx(0x0800D090, 0x2 Bytes, Flags = 0x02000000)
T2577C 004:026.624    -- Read from C cache (2 bytes @ 0x0800D090)
T2577C 004:026.631   Data:  05 E0
T2577C 004:026.638 - 0.022ms returns 2 (0x2)
T2577C 004:026.645 JLINK_ReadMemEx(0x0800D090, 0x3C Bytes, Flags = 0x02000000)
T2577C 004:026.651    -- Read from C cache (60 bytes @ 0x0800D090)
T2577C 004:026.659   Data:  05 E0 F9 F7 A3 FF 01 21 68 46 00 F0 D7 FD F8 E7 ...
T2577C 004:026.665 - 0.022ms returns 60 (0x3C)
T2577C 004:026.672 JLINK_ReadMemEx(0x0800D090, 0x2 Bytes, Flags = 0x02000000)
T2577C 004:026.677    -- Read from C cache (2 bytes @ 0x0800D090)
T2577C 004:026.685   Data:  05 E0
T2577C 004:026.692 - 0.022ms returns 2 (0x2)
T2577C 004:026.698 JLINK_ReadMemEx(0x0800D092, 0x2 Bytes, Flags = 0x02000000)
T2577C 004:026.704    -- Read from C cache (2 bytes @ 0x0800D092)
T2577C 004:026.711   Data:  F9 F7
T2577C 004:026.718 - 0.022ms returns 2 (0x2)
T2577C 004:026.725 JLINK_ReadMemEx(0x0800D092, 0x2 Bytes, Flags = 0x02000000)
T2577C 004:026.730    -- Read from C cache (2 bytes @ 0x0800D092)
T2577C 004:026.738   Data:  F9 F7
T2577C 004:026.745 - 0.022ms returns 2 (0x2)
T2577C 004:026.751 JLINK_ReadMemEx(0x0800D094, 0x3C Bytes, Flags = 0x02000000)
T2577C 004:026.757    -- Read from C cache (60 bytes @ 0x0800D094)
T2577C 004:026.765   Data:  A3 FF 01 21 68 46 00 F0 D7 FD F8 E7 F0 EE 40 0A ...
T2577C 004:026.772 - 0.022ms returns 60 (0x3C)
T2577C 004:026.778 JLINK_ReadMemEx(0x0800D094, 0x2 Bytes, Flags = 0x02000000)
T2577C 004:026.784    -- Read from C cache (2 bytes @ 0x0800D094)
T2577C 004:026.791   Data:  A3 FF
T2577C 004:026.797 - 0.022ms returns 2 (0x2)
T2577C 004:026.804 JLINK_ReadMemEx(0x0800D096, 0x2 Bytes, Flags = 0x02000000)
T2577C 004:026.812    -- Read from C cache (2 bytes @ 0x0800D096)
T2577C 004:026.820   Data:  01 21
T2577C 004:026.826 - 0.024ms returns 2 (0x2)
T2577C 004:026.833 JLINK_ReadMemEx(0x0800D098, 0x3C Bytes, Flags = 0x02000000)
T2577C 004:026.839    -- Read from C cache (60 bytes @ 0x0800D098)
T2577C 004:026.847   Data:  68 46 00 F0 D7 FD F8 E7 F0 EE 40 0A F6 EE 00 1A ...
T2577C 004:026.854 - 0.023ms returns 60 (0x3C)
T2577C 004:026.860 JLINK_ReadMemEx(0x0800D098, 0x2 Bytes, Flags = 0x02000000)
T2577C 004:026.866    -- Read from C cache (2 bytes @ 0x0800D098)
T2577C 004:026.873   Data:  68 46
T2577C 004:026.880 - 0.021ms returns 2 (0x2)
T2577C 004:026.886 JLINK_ReadMemEx(0x0800D098, 0x3C Bytes, Flags = 0x02000000)
T2577C 004:026.892    -- Read from C cache (60 bytes @ 0x0800D098)
T2577C 004:026.900   Data:  68 46 00 F0 D7 FD F8 E7 F0 EE 40 0A F6 EE 00 1A ...
T2577C 004:026.907 - 0.022ms returns 60 (0x3C)
T2577C 004:026.913 JLINK_ReadMemEx(0x0800D098, 0x2 Bytes, Flags = 0x02000000)
T2577C 004:026.919    -- Read from C cache (2 bytes @ 0x0800D098)
T2577C 004:026.926   Data:  68 46
T2577C 004:026.933 - 0.022ms returns 2 (0x2)
T2577C 004:026.940 JLINK_ReadMemEx(0x0800D09A, 0x2 Bytes, Flags = 0x02000000)
T2577C 004:026.945    -- Read from C cache (2 bytes @ 0x0800D09A)
T2577C 004:026.953   Data:  00 F0
T2577C 004:026.959 - 0.022ms returns 2 (0x2)
T2577C 004:026.966 JLINK_ReadMemEx(0x0800D09A, 0x2 Bytes, Flags = 0x02000000)
T2577C 004:026.972    -- Read from C cache (2 bytes @ 0x0800D09A)
T2577C 004:026.979   Data:  00 F0
T2577C 004:026.986 - 0.022ms returns 2 (0x2)
T2577C 004:026.992 JLINK_ReadMemEx(0x0800D09C, 0x3C Bytes, Flags = 0x02000000)
T2577C 004:026.998    -- Read from C cache (60 bytes @ 0x0800D09C)
